! no comment supplied
# Hz S RI R 5.00000000000e+01
1.00000000000e+07 1.82557476374e-04 7.28571458646e-05 9.99799207786e-01 -1.95006840253e-03 4.09828131811e-05 4.52740693466e-04 -3.24435750995e-05 -1.89346785178e-05
                9.99799072233e-01 -1.95006739440e-03 1.82696174073e-04 7.28550640946e-05 -3.24771104955e-05 -1.89346475705e-05 4.10151329980e-05 4.52741237252e-04
                4.10184424064e-05 4.52740567452e-04 -3.24796252421e-05 -1.89342909254e-05 1.82835733879e-04 7.63505585945e-05 9.99798824756e-01 -1.94856649501e-03
                -3.24410588750e-05 -1.89350232333e-05 4.09795017428e-05 4.52741370582e-04 9.99798910831e-01 -1.94856606028e-03 1.82751665430e-04 7.63491907517e-05
2.00950000000e+09 -4.50308588074e-03 -1.54717858089e-02 9.32460803968e-01 -3.38803887517e-01 2.81759347190e-02 7.39378146515e-02 1.42087326607e-03 -6.21835300206e-06
                9.32460803974e-01 -3.38803887519e-01 -4.42804433813e-03 -1.55032901652e-02 1.41568068390e-03 -1.77794391616e-06 2.81598859479e-02 7.39450480933e-02
                2.81759347197e-02 7.39378146514e-02 1.41568068486e-03 -1.77794441976e-06 -4.25777662437e-03 -1.48699000892e-02 9.32594151966e-01 -3.38404238722e-01
                1.42087326504e-03 -6.21835282618e-06 2.81598859471e-02 7.39450480931e-02 9.32594151965e-01 -3.38404238721e-01 -4.22285580052e-03 -1.48855775417e-02
4.00900000000e+09 -1.81186821024e-02 -2.31093830110e-02 7.57774442843e-01 -6.22838797079e-01 9.45765584803e-02 1.12268312323e-01 2.79484523383e-03 -3.61420858166e-03
                7.57774442844e-01 -6.22838797079e-01 -1.78965664942e-02 -2.33080791010e-02 2.78772497211e-03 -3.59122379670e-03 9.45293790718e-02 1.12310857884e-01
                9.45765584806e-02 1.12268312323e-01 2.78772497224e-03 -3.59122379697e-03 -1.72513765387e-02 -2.21978306679e-02 7.58304755440e-01 -6.22192716392e-01
                2.79484523353e-03 -3.61420858158e-03 9.45293790716e-02 1.12310857885e-01 7.58304755441e-01 -6.22192716393e-01 -1.71466374261e-02 -2.22915326463e-02
6.00850000000e+09 -3.19119640963e-02 -2.05503974383e-02 5.06588991907e-01 -8.25680115374e-01 1.68960399837e-01 1.01692300335e-01 -2.18539510528e-04 -8.92201156466e-03
                5.06588991907e-01 -8.25680115374e-01 -3.16187082487e-02 -2.10696012773e-02 -2.06789057979e-04 -8.87764036378e-03 1.68895991325e-01 1.01801427208e-01
                1.68960399837e-01 1.01692300335e-01 -2.06789057982e-04 -8.87764036386e-03 -3.02925745107e-02 -1.97678556961e-02 5.07643546338e-01 -8.25052486874e-01
                -2.18539510598e-04 -8.92201156462e-03 1.68895991325e-01 1.01801427208e-01 5.07643546338e-01 -8.25052486874e-01 -3.01498758270e-02 -2.00153613435e-02
8.00800000000e+09 -4.01358695907e-02 -1.09197632113e-02 2.12855372357e-01 -9.35201699378e-01 2.21081881564e-01 4.93548683349e-02 -8.10312774992e-03 -1.11273713962e-02
                2.12855372357e-01 -9.35201699378e-01 -3.99591660640e-02 -1.18129554759e-02 -8.05624396744e-03 -1.10816415285e-02 2.21035701298e-01 4.95442749037e-02
                2.21081881564e-01 4.93548683349e-02 -8.05624396749e-03 -1.10816415285e-02 -3.78979959548e-02 -1.06837996296e-02 2.14421054681e-01 -9.34873814794e-01
                -8.10312774998e-03 -1.11273713962e-02 2.21035701298e-01 4.95442749037e-02 2.14421054681e-01 -9.34873814794e-01 -3.78084728101e-02 -1.11191056548e-02
1.00075000000e+10 -4.04949145207e-02 1.01751688603e-03 -9.48384827831e-02 -9.49780158171e-01 2.32024451287e-01 -2.28916965086e-02 -1.71314168247e-02 -6.82309278379e-03
                -9.48384827831e-02 -9.49780158171e-01 -4.06338622824e-02 -1.47674197836e-04 -1.70577768126e-02 -6.80301341013e-03 2.32037538359e-01 -2.26357969590e-02
                2.32024451287e-01 -2.28916965086e-02 -1.70577768126e-02 -6.80301341011e-03 -3.79700006852e-02 4.34594515848e-04 -9.28832306474e-02 -9.49999506882e-01
                -1.71314168247e-02 -6.82309278381e-03 2.32037538359e-01 -2.26357969590e-02 -9.28832306474e-02 -9.49999506882e-01 -3.80382688147e-02 -1.44615333887e-04
1.20070000000e+10 -3.32499760191e-02 1.06099174375e-02 -3.92375053448e-01 -8.71045576084e-01 1.98455835437e-01 -8.75251615528e-02 -2.21133210827e-02 3.41369145627e-03
                -3.92375053448e-01 -8.71045576084e-01 -3.38031708184e-02 9.41197745986e-03 -2.20412601955e-02 3.40096907931e-03 1.98556589889e-01 -8.72450371420e-02
                1.98455835437e-01 -8.75251615528e-02 -2.20412601955e-02 3.40096907932e-03 -3.08684800888e-02 9.15686225325e-03 -3.90233749731e-01 -8.72010496103e-01
                -2.21133210827e-02 3.41369145626e-03 1.98556589889e-01 -8.72450371420e-02 -3.90233749731e-01 -8.72010496103e-01 -3.11515535458e-02 8.55034123193e-03
1.40065000000e+10 -2.08524166325e-02 1.37169753594e-02 -6.54958715738e-01 -7.02127537643e-01 1.32856602123e-01 -1.19679238647e-01 -1.98485574317e-02 1.52921887985e-02
                -6.54958715738e-01 -7.02127537643e-01 -2.17293870787e-02 1.27753974969e-02 -1.97977126579e-02 1.52704365422e-02 1.33040658705e-01 -1.19436110023e-01
                1.32856602123e-01 -1.19679238647e-01 -1.97977126579e-02 1.52704365421e-02 -1.90162630122e-02 1.15968121840e-02 -6.52912566040e-01 -7.03977848255e-01
                -1.98485574317e-02 1.52921887984e-02 1.33040658705e-01 -1.19436110023e-01 -6.52912566040e-01 -7.03977848255e-01 -1.94787892187e-02 1.11049513537e-02
1.60060000000e+10 -8.29739169624e-03 7.84904822494e-03 -8.53600748154e-01 -4.52238936175e-01 6.07416267705e-02 -1.05468238012e-01 -1.13760522222e-02 2.35359925995e-02
                -8.53600748154e-01 -4.52238936175e-01 -9.19683812390e-03 7.35434869976e-03 -1.13281939975e-02 2.35373683361e-02 6.09576742326e-02 -1.05315603903e-01
                6.07416267705e-02 -1.05468238012e-01 -1.13281939976e-02 2.35373683362e-02 -7.22828826369e-03 5.47940044900e-03 -8.52015440102e-01 -4.55023882937e-01
                -1.13760522222e-02 2.35359925995e-02 6.09576742325e-02 -1.05315603903e-01 -8.52015440102e-01 -4.55023882936e-01 -7.73917894560e-03 5.19978748051e-03
1.80055000000e+10 -1.98296667376e-03 -5.46574627203e-03 -9.58400170465e-01 -1.44095382722e-01 1.26203456941e-02 -4.94660451973e-02 -1.25579809327e-03 2.57517311749e-02
                -9.58400170465e-01 -1.44095382722e-01 -2.49463572884e-03 -5.57887556805e-03 -1.16108297556e-03 2.57713682303e-02 1.27812239090e-02 -4.94111182026e-02
                1.26203456942e-02 -4.94660451971e-02 -1.16108297535e-03 2.57713682303e-02 -1.60535239110e-03 -7.59872687369e-03 -9.57707697496e-01 -1.47708428857e-01
                -1.25579809346e-03 2.57517311743e-02 1.27812239087e-02 -4.94111182028e-02 -9.57707697496e-01 -1.47708428857e-01 -1.98301955076e-03 -7.67289835667e-03
2.00050000000e+10 -5.76576801864e-03 -1.99259561534e-02 -9.49513701561e-01 1.83586722170e-01 1.02131285310e-02 2.42703232491e-02 6.52516808507e-03 2.41526331145e-02
                -9.49513701561e-01 1.83586722170e-01 -5.59384463258e-03 -2.00246777267e-02 6.69516739374e-03 2.41288882933e-02 1.02404627513e-02 2.42876986714e-02
                1.02131285310e-02 2.42703232491e-02 6.69516739375e-03 2.41288882932e-02 -5.71753494896e-03 -2.14776145199e-02 -9.50128465904e-01 1.79472607222e-01
                6.52516808511e-03 2.41526331144e-02 1.02404627513e-02 2.42876986715e-02 -9.50128465904e-01 1.79472607222e-01 -5.80856494438e-03 -2.14774256047e-02
2.20045000000e+10 -1.74918854475e-02 -2.81642375829e-02 -8.28089185815e-01 4.84763655183e-01 5.42521089506e-02 8.27756949930e-02 1.22525875211e-02 2.24761948086e-02
                -8.28089185815e-01 4.84763655183e-01 -1.66645346682e-02 -2.87635105078e-02 1.24555064568e-02 2.23353701890e-02 5.41256833517e-02 8.28595651343e-02
                5.42521089506e-02 8.27756949930e-02 1.24555064568e-02 2.23353701890e-02 -1.72813144276e-02 -2.90797756996e-02 -8.30269159510e-01 4.80687994450e-01
                1.22525875211e-02 2.24761948086e-02 5.41256833518e-02 8.28595651343e-02 -8.30269159510e-01 4.80687994450e-01 -1.70415498702e-02 -2.92244951934e-02
2.40040000000e+10 -3.05823708761e-02 -2.69961266054e-02 -6.16425074538e-01 7.21159443631e-01 1.24212022848e-01 1.01190215625e-01 1.91158941486e-02 2.12781327669e-02
                -6.16425074538e-01 7.21159443631e-01 -2.94774068047e-02 -2.84874311476e-02 1.92567766433e-02 2.10051431505e-02 1.23983313182e-01 1.01436595520e-01
                1.24212022848e-01 1.01190215625e-01 1.92567766433e-02 2.10051431505e-02 -2.97898224109e-02 -2.75138321128e-02 -6.20163160649e-01 7.17761914816e-01
                1.91158941486e-02 2.12781327669e-02 1.23983313182e-01 1.01436595520e-01 -6.20163160649e-01 7.17761914816e-01 -2.93294758824e-02 -2.80235573106e-02
2.60035000000e+10 -3.89830149026e-02 -1.85761419452e-02 -3.47123312089e-01 8.71400118935e-01 1.90117722217e-01 7.36973784544e-02 2.85543429363e-02 1.74010901380e-02
                -3.47123312089e-01 8.71400118935e-01 -3.81568231991e-02 -2.10282365032e-02 2.85573105435e-02 1.70584639405e-02 1.89885921692e-01 7.41543053911e-02
                1.90117722217e-01 7.36973784544e-02 2.85573105435e-02 1.70584639404e-02 -3.74018808781e-02 -1.91215824664e-02 -3.52142647859e-01 8.69269340070e-01
                2.85543429364e-02 1.74010901380e-02 1.89885921692e-01 7.41543053911e-02 -3.52142647859e-01 8.69269340070e-01 -3.69619607069e-02 -2.01118577335e-02
2.80030000000e+10 -4.00113527352e-02 -7.54678015768e-03 -5.15796940830e-02 9.29056732714e-01 2.26347025462e-01 1.29705230121e-02 3.80200779052e-02 7.59790504144e-03
                -5.15796940830e-02 9.29056732714e-01 -3.99627710495e-02 -1.06724452632e-02 3.78801061443e-02 7.27681666467e-03 2.26224906824e-01 1.36234783965e-02
                2.26347025462e-01 1.29705230121e-02 3.78801061443e-02 7.27681666466e-03 -3.77063400672e-02 -8.58868893092e-03 -5.74119088733e-02 9.28631248785e-01
                3.80200779053e-02 7.59790504145e-03 2.26224906824e-01 1.36234783965e-02 -5.74119088733e-02 9.28631248785e-01 -3.75667019701e-02 -1.00013036317e-02
3.00025000000e+10 -3.39278041504e-02 1.58082190165e-03 2.44334463272e-01 8.95200810364e-01 2.19931646724e-01 -5.71662467294e-02 4.27343876948e-02 -8.13277776119e-03
                2.44334463272e-01 8.95200810364e-01 -3.49056658422e-02 -1.67200899140e-03 4.25066556320e-02 -8.37914318922e-03 2.20013554424e-01 -5.63952279921e-02
                2.19931646724e-01 -5.71662467294e-02 4.25066556319e-02 -8.37914318922e-03 -3.12219140327e-02 -3.18263849557e-04 2.38263799355e-01 8.96746130741e-01
                4.27343876948e-02 -8.13277776119e-03 2.20013554424e-01 -5.63952279921e-02 2.38263799355e-01 8.96746130741e-01 -3.15825680366e-02 -1.92670676535e-03
3.20020000000e+10 -2.29185044239e-02 5.15349754064e-03 5.17672780231e-01 7.73006112091e-01 1.73319582542e-01 -1.10184548267e-01 3.90313866054e-02 -2.59794861295e-02
                5.17672780231e-01 7.73006112091e-01 -2.48020960073e-02 2.40519532409e-03 3.87720524670e-02 -2.61658798423e-02 1.73645596180e-01 -1.09426357775e-01
                1.73319582542e-01 -1.10184548267e-01 3.87720524670e-02 -2.61658798423e-02 -2.03013828919e-02 2.28247432280e-03 5.12001269680e-01 7.76627004403e-01
                3.90313866054e-02 -2.59794861295e-02 1.73645596180e-01 -1.09426357775e-01 5.12001269680e-01 7.76627004403e-01 -2.11908245992e-02 7.94565785029e-04
3.40015000000e+10 -1.10424376832e-02 8.05115399801e-04 7.43586761153e-01 5.68165789547e-01 1.03785952977e-01 -1.24984557299e-01 2.69594971965e-02 -4.03322789462e-02
                7.43586761153e-01 5.68165789547e-01 -1.33152122074e-02 -9.57428118560e-04 2.66629902853e-02 -4.05086680871e-02 1.04306087033e-01 -1.24386448917e-01
                1.03785952977e-01 -1.24984557299e-01 2.66629902854e-02 -4.05086680871e-02 -8.99556765723e-03 -2.83274408306e-03 7.39011875284e-01 5.73798467005e-01
                2.69594971965e-02 -4.03322789462e-02 1.04306087033e-01 -1.24386448918e-01 7.39011875284e-01 5.73798467005e-01 -1.02427228694e-02 -3.91334800976e-03
3.60010000000e+10 -3.88667970625e-03 -1.09336701443e-02 8.93865695801e-01 2.94675466122e-01 3.91044794095e-02 -9.41028015644e-02 1.05793581805e-02 -4.73041407877e-02
                8.93865695802e-01 2.94675466122e-01 -5.76844784391e-03 -1.16410489288e-02 1.01695195149e-02 -4.74740985566e-02 3.96721912336e-02 -9.37600649399e-02
                3.91044794096e-02 -9.41028015644e-02 1.01695195148e-02 -4.74740985566e-02 -2.67533647142e-03 -1.48703682278e-02 8.91133929335e-01 3.02026520208e-01
                1.05793581806e-02 -4.73041407877e-02 3.96721912336e-02 -9.37600649398e-02 8.91133929335e-01 3.02026520208e-01 -3.95636318155e-03 -1.54039668462e-02
3.80005000000e+10 -5.89943685755e-03 -2.51672680509e-02 9.42953847594e-01 -1.89760853722e-02 7.38339697581e-03 -2.93972974814e-02 -5.00363274232e-03 -4.74344713710e-02
                9.42953847594e-01 -1.89760853724e-02 -6.68075997552e-03 -2.53080428564e-02 -5.59453220013e-03 -4.74939844159e-02 7.80967486433e-03 -2.92872845206e-02
                7.38339697551e-03 -2.93972974813e-02 -5.59453220027e-03 -4.74939844158e-02 -5.44601672247e-03 -2.88679437526e-02 9.42772594000e-01 -1.05215558741e-02
                -5.00363274217e-03 -4.74344713708e-02 7.80967486432e-03 -2.92872845203e-02 9.42772594000e-01 -1.05215558740e-02 -6.39459272149e-03 -2.89367997972e-02
4.00000000000e+10 -1.65166299081e-02 -3.45957590323e-02 8.79504396669e-01 -3.31100336416e-01 2.31803440988e-02 4.09098610536e-02 -1.79585120316e-02 -4.43888085154e-02
                8.79504396669e-01 -3.31100336416e-01 -1.59632146972e-02 -3.50627535608e-02 -1.86779552591e-02 -4.41718499782e-02 2.33296100831e-02 4.09322746507e-02
                2.31803440988e-02 4.09098610536e-02 -1.86779552591e-02 -4.41718499782e-02 -1.64431204025e-02 -3.76880669042e-02 8.82348711082e-01 -3.22504165316e-01
                -1.79585120316e-02 -4.43888085154e-02 2.33296100831e-02 4.09322746507e-02 8.82348711082e-01 -3.22504165316e-01 -1.67958314935e-02 -3.75965110815e-02
