! no comment supplied
# Hz Z RI R 5.00000000000e+01
1.00000000000e+07 1.23682207126e+01 -3.67913838257e+02
6.09500000000e+08 1.43278179841e+00 -7.07867983984e+00
1.20900000000e+09 5.95485541900e-01 -2.42954095313e+00
1.80850000000e+09 3.63880460078e-01 -4.56816049245e-02
2.40800000000e+09 2.77372885795e-01 1.72214787363e+00
3.00750000000e+09 2.45541450740e-01 3.27696950213e+00
3.60700000000e+09 2.46221994265e-01 4.78495880682e+00
4.20650000000e+09 2.72904634867e-01 6.34531391353e+00
4.80600000000e+09 3.36724593220e-01 8.07053235301e+00
5.40550000000e+09 4.67800116165e-01 1.01012372296e+01
6.00500000000e+09 7.52034837808e-01 1.27030196700e+01
6.60450000000e+09 1.42253081056e+00 1.64041599692e+01
7.20400000000e+09 3.50907945038e+00 2.29703498343e+01
7.80350000000e+09 1.61522626952e+01 3.79813633895e+01
8.40300000000e+09 5.38151769583e+01 -1.56631139448e+01
9.00250000000e+09 9.62717108555e+00 -1.11914168533e+01
9.60200000000e+09 3.83628350346e+00 -1.71397732240e+00
1.02015000000e+10 2.34408599785e+00 3.46355542940e+00
1.08010000000e+10 1.84361685418e+00 7.15805719253e+00
1.14005000000e+10 1.72818457398e+00 1.03220391113e+01
1.20000000000e+10 1.81316957816e+00 1.34937757987e+01
