! no comment supplied
# Hz Z RI R 5.00000000000e+01
1.00000000000e+07 1.43015332120e+00 3.47754415249e-02
1.00950000000e+09 1.56117194352e+00 1.71796983640e+00
2.00900000000e+09 1.79808578140e+00 3.43077833964e+00
3.00850000000e+09 2.24699782252e+00 5.20019489504e+00
4.00800000000e+09 3.02422334364e+00 7.00044745922e+00
5.00750000000e+09 4.27592200866e+00 8.67515556756e+00
6.00700000000e+09 6.00634182135e+00 9.84301175176e+00
7.00650000000e+09 7.72431598308e+00 1.01312515324e+01
8.00600000000e+09 8.68920523585e+00 9.89816220121e+00
9.00550000000e+09 8.94060551899e+00 1.00000833178e+01
1.00050000000e+10 9.12906859643e+00 1.07339936356e+01
1.10045000000e+10 9.73440536142e+00 1.18521420820e+01
1.20040000000e+10 1.09321225633e+01 1.29362738090e+01
1.30035000000e+10 1.25956690257e+01 1.35162113578e+01
1.40030000000e+10 1.41910979362e+01 1.33005414927e+01
1.50025000000e+10 1.50531756451e+01 1.26309306551e+01
1.60020000000e+10 1.51515759310e+01 1.23251398920e+01
1.70015000000e+10 1.51426696768e+01 1.28086003718e+01
1.80010000000e+10 1.56859206216e+01 1.38573501776e+01
1.90005000000e+10 1.71032270052e+01 1.48890725365e+01
2.00000000000e+10 1.92523959492e+01 1.51443519589e+01
