! no comment supplied
# Hz Z RI R 5.00000000000e+01
1.00000000000e+07 1.26115081900e+01 -3.76129471392e+02
1.00950000000e+09 7.66468991369e-01 -3.64665761896e+00
2.00900000000e+09 3.29517822441e-01 5.35893368158e-01
3.00850000000e+09 2.47043399097e-01 3.24631986808e+00
4.00800000000e+09 2.59195331256e-01 5.78453495086e+00
5.00750000000e+09 3.64461681613e-01 8.65338802437e+00
6.00700000000e+09 7.10213356311e-01 1.25591047053e+01
7.00650000000e+09 2.25620572141e+00 1.97725882710e+01
8.00600000000e+09 2.59146081150e+01 4.25431903259e+01
9.00550000000e+09 1.15267120137e+01 -1.32483044311e+01
1.00050000000e+10 2.89769980626e+00 1.30893899571e+00
1.10045000000e+10 1.79999584611e+00 7.81960848983e+00
1.20040000000e+10 1.78505074227e+00 1.31207340876e+01
1.30035000000e+10 2.63295688924e+00 1.93891157980e+01
1.40030000000e+10 6.33549324122e+00 2.97913236154e+01
1.50025000000e+10 3.68540720865e+01 4.99152272701e+01
1.60020000000e+10 3.19392258646e+01 -2.22804891376e+01
1.70015000000e+10 7.76256350781e+00 -3.86938124868e+00
1.80010000000e+10 4.34076989975e+00 6.43985785519e+00
1.90005000000e+10 3.88721528780e+00 1.41923760837e+01
2.00000000000e+10 5.16480047161e+00 2.26284054163e+01
