! no comment supplied
# Hz Z RI R 5.00000000000e+01
1.00000000000e+07 1.43015609806e+00 3.47817497854e-02
6.09500000000e+08 1.50843942202e+00 1.04413781049e+00
1.20900000000e+09 1.59543170183e+00 2.05687927840e+00
1.80850000000e+09 1.73639389440e+00 3.08417005681e+00
2.40800000000e+09 1.94659216480e+00 4.13165755548e+00
3.00750000000e+09 2.24649233601e+00 5.20036186520e+00
3.60700000000e+09 2.66359043789e+00 6.28254534593e+00
4.20650000000e+09 3.23121155511e+00 7.35439982158e+00
4.80600000000e+09 3.98082027389e+00 8.36575733804e+00
5.40550000000e+09 4.92139850691e+00 9.23199786942e+00
6.00500000000e+09 6.00356599416e+00 9.84463476921e+00
6.60450000000e+09 7.09029056618e+00 1.01238518358e+01
7.20400000000e+09 7.98948170480e+00 1.01011266529e+01
7.80350000000e+09 8.56721344544e+00 9.94496493103e+00
8.40300000000e+09 8.83884031768e+00 9.86732739468e+00
9.00250000000e+09 8.93756908734e+00 1.00030680954e+01
9.60200000000e+09 9.01908382897e+00 1.03771521348e+01
1.02015000000e+10 9.20259911370e+00 1.09424636738e+01
1.08010000000e+10 9.56209530782e+00 1.16207630053e+01
1.14005000000e+10 1.01350124450e+01 1.23209509024e+01
1.20000000000e+10 1.09248341879e+01 1.29425171010e+01
