!
# HZ Z  RI R 5.000000e+01
! 
1.000000000000000e+09 2.979445997483481e-07 -2.320071797647215e+03 -1.328211315622899e-07 -2.322111505259355e+03 -1.328208899103251e-07 -2.322111505259357e+03 2.979447756163936e-07 -2.320071797647215e+03
1.035503366489131e+09 3.022941646454620e-07 -2.240430687073397e+03 -1.360611959461646e-07 -2.242542833518569e+03 -1.360612795878282e-07 -2.242542833518569e+03 3.022935158866373e-07 -2.240430687073397e+03
1.072267222010323e+09 3.067330691089136e-07 -2.163516787838645e+03 -1.393458153153566e-07 -2.165703947406244e+03 -1.393460667456498e-07 -2.165703947406244e+03 3.067328375515575e-07 -2.163516787838644e+03
1.110336318167638e+09 3.113654965414465e-07 -2.089236474633086e+03 -1.425740238810290e-07 -2.091501313280782e+03 -1.425740499366613e-07 -2.091501313280783e+03 3.113654586846340e-07 -2.089236474633085e+03
1.149756995397736e+09 3.161158432796528e-07 -2.017499327915908e+03 -1.458236414423254e-07 -2.019844606554247e+03 -1.458233720717151e-07 -2.019844606554247e+03 3.161160984758762e-07 -2.017499327915907e+03
1.190577239378784e+09 3.209615510701733e-07 -1.948218023847700e+03 -1.491198232747271e-07 -1.950646601744646e+03 -1.491199197230767e-07 -1.950646601744646e+03 3.209613062006829e-07 -1.948218023847700e+03
1.232846739442066e+09 3.259597009702098e-07 -1.881308227991130e+03 -1.524079624208235e-07 -1.883823066301168e+03 -1.524080386479201e-07 -1.883823066301169e+03 3.259595540874305e-07 -1.881308227991131e+03
1.276616949057408e+09 3.311045026849722e-07 -1.816688492650137e+03 -1.556965512042024e-07 -1.819292658072774e+03 -1.556968848808308e-07 -1.819292658072775e+03 3.311041829853071e-07 -1.816688492650138e+03
1.321941148466029e+09 3.363770480919728e-07 -1.754280157722683e+03 -1.590072269193197e-07 -1.756976826295383e+03 -1.590071533596689e-07 -1.756976826295383e+03 3.363772231716575e-07 -1.754280157722684e+03
1.368874509537081e+09 3.418031485578438e-07 -1.694007254946661e+03 -1.623170626840457e-07 -1.696799715977498e+03 -1.623168037323317e-07 -1.696799715977498e+03 3.418033847588119e-07 -1.694007254946661e+03
1.417474162926806e+09 3.473191530841274e-07 -1.635796415421810e+03 -1.656924565250418e-07 -1.638688075567371e+03 -1.656923543435527e-07 -1.638688075567371e+03 3.473189503850440e-07 -1.635796415421811e+03
1.467799267622070e+09 3.529957677605091e-07 -1.579576780295499e+03 -1.690651887173948e-07 -1.582571167789778e+03 -1.690653588714420e-07 -1.582571167789778e+03 3.529958010736587e-07 -1.579576780295499e+03
1.519911082952934e+09 3.588106437758034e-07 -1.525279914503453e+03 -1.724609433518075e-07 -1.528380683543838e+03 -1.724613762461011e-07 -1.528380683543838e+03 3.588109329824023e-07 -1.525279914503452e+03
1.573873043161904e+09 3.647388028337397e-07 -1.472839723460279e+03 -1.759082368629890e-07 -1.476050658756933e+03 -1.759082431263520e-07 -1.476050658756933e+03 3.647389356392854e-07 -1.472839723460279e+03
1.629750834620645e+09 3.707966152999495e-07 -1.422192372598383e+03 -1.793930396807780e-07 -1.425517394093696e+03 -1.793929735012269e-07 -1.425517394093696e+03 3.707966620310971e-07 -1.422192372598383e+03
1.687612475788148e+09 3.769871215352302e-07 -1.373276209657386e+03 -1.829156344976549e-07 -1.376719377422480e+03 -1.829157764960375e-07 -1.376719377422479e+03 3.769869645537142e-07 -1.373276209657386e+03
1.747528400007684e+09 3.833258869411194e-07 -1.326031689629145e+03 -1.864637775478526e-07 -1.329597208944759e+03 -1.864638262195241e-07 -1.329597208944759e+03 3.833258182853824e-07 -1.326031689629145e+03
1.809571541243322e+09 3.897903243533946e-07 -1.280401302267178e+03 -1.900633770027625e-07 -1.284093528896668e+03 -1.900633141445417e-07 -1.284093528896668e+03 3.897903618605741e-07 -1.280401302267177e+03
1.873817422860385e+09 3.963881710916437e-07 -1.236329502071881e+03 -1.937100438029685e-07 -1.240152947734437e+03 -1.937100354766423e-07 -1.240152947734437e+03 3.963881105195728e-07 -1.236329502071880e+03
1.940344249557916e+09 4.031248196880624e-07 -1.193762640666581e+03 -1.974019084374683e-07 -1.197721978719227e+03 -1.974018842551672e-07 -1.197721978719227e+03 4.031248357891181e-07 -1.193762640666581e+03
2.009233002565048e+09 4.099965887563956e-07 -1.152648901481573e+03 -2.011462737687221e-07 -1.156748972818956e+03 -2.011465763996998e-07 -1.156748972818956e+03 4.099962132467245e-07 -1.152648901481573e+03
2.080567538217172e+09 4.170218254854264e-07 -1.112938236666831e+03 -2.049283220088802e-07 -1.117184055848326e+03 -2.049284309904317e-07 -1.117184055848326e+03 4.170218914613207e-07 -1.112938236666831e+03
2.154434690031885e+09 4.241733860508839e-07 -1.074582306156357e+03 -2.087792517422419e-07 -1.078979067770541e+03 -2.087791057556227e-07 -1.078979067770541e+03 4.241735174231166e-07 -1.074582306156358e+03
2.230924374408984e+09 4.314718298862546e-07 -1.037534418809774e+03 -2.126821434312043e-07 -1.042087504086893e+03 -2.126820452564418e-07 -1.042087504086894e+03 4.314718765209711e-07 -1.037534418809774e+03
2.310129700083161e+09 4.389221257585891e-07 -1.001749475559437e+03 -2.166359844996173e-07 -1.006464459243133e+03 -2.166360281008179e-07 -1.006464459243134e+03 4.389221513581308e-07 -1.001749475559437e+03
2.392147081462640e+09 4.465176511022927e-07 -9.671839144935904e+02 -2.206516842476544e-07 -9.720665719838144e+02 -2.206516535825518e-07 -9.720665719838140e+02 4.465177229987493e-07 -9.671839144935909e+02
2.477076355991713e+09 4.542536273021152e-07 -9.337956578086779e+02 -2.247381425782818e-07 -9.388519725884404e+02 -2.247379518975197e-07 -9.388519725884402e+02 4.542538277469277e-07 -9.337956578086779e+02
2.565020905680047e+09 4.621444546219158e-07 -9.015440605656206e+02 -2.288853256649700e-07 -9.067802319250475e+02 -2.288853383933192e-07 -9.067802319250474e+02 4.621444246668962e-07 -9.015440605656199e+02
2.656087782946688e+09 4.701928576087079e-07 -8.703898611879256e+02 -2.330949282984891e-07 -8.758123122599068e+02 -2.330949314483466e-07 -8.758123122599068e+02 4.701928812113117e-07 -8.703898611879259e+02
2.750387840931948e+09 4.783977058054648e-07 -8.402951336406776e+02 -2.373727845877146e-07 -8.459105197633480e+02 -2.373728668726131e-07 -8.459105197633480e+02 4.783976349513554e-07 -8.402951336406776e+02
2.848035868435804e+09 4.867518798437782e-07 -8.112232412320297e+02 -2.417307491592691e-07 -8.170384586543314e+02 -2.417308247169878e-07 -8.170384586543315e+02 4.867517886204618e-07 -8.112232412320301e+02
2.949150729647070e+09 4.952745675275932e-07 -7.831387919806247e+02 -2.461546227717403e-07 -7.891609869282881e+02 -2.461545312127767e-07 -7.891609869282884e+02 4.952746272038440e-07 -7.831387919806244e+02
3.053855508833418e+09 5.039604464600912e-07 -7.560075954941235e+02 -2.506546859040774e-07 -7.622441736146175e+02 -2.506547613838811e-07 -7.622441736146177e+02 5.039603937800056e-07 -7.560075954941236e+02
3.162277660168382e+09 5.128101786274758e-07 -7.297966213059759e+02 -2.552356594412000e-07 -7.362552575122692e+02 -2.552358545880128e-07 -7.362552575122694e+02 5.128101314347586e-07 -7.297966213059759e+02
3.274549162877731e+09 5.218288306940405e-07 -7.044739586191913e+02 -2.598981295021254e-07 -7.111626073536144e+02 -2.598982515454184e-07 -7.111626073536144e+02 5.218286696134811e-07 -7.044739586191912e+02
3.390806681894056e+09 5.310221485843326e-07 -6.800087774074872e+02 -2.646417514883966e-07 -6.869356833485327e+02 -2.646418943300834e-07 -6.869356833485331e+02 5.310219880586442e-07 -6.800087774074869e+02
3.511191734215135e+09 5.403930714639277e-07 -6.563712908259607e+02 -2.694695325196844e-07 -6.635450000625823e+02 -2.694697869548479e-07 -6.635450000625819e+02 5.403928777633125e-07 -6.563712908259604e+02
3.635850861168581e+09 5.499428187427474e-07 -6.335327188847483e+02 -2.743865760020039e-07 -6.409620905845871e+02 -2.743864684693313e-07 -6.409620905845871e+02 5.499428874776552e-07 -6.335327188847483e+02
3.764935806792472e+09 5.596753721104307e-07 -6.114652533406495e+02 -2.793950449951969e-07 -6.191594719406908e+02 -2.793949830663969e-07 -6.191594719406907e+02 5.596754595935251e-07 -6.114652533406492e+02
3.898603702549077e+09 5.695972340718401e-07 -5.901420237632317e+02 -2.844952454442538e-07 -5.981106117136480e+02 -2.844953442543754e-07 -5.981106117136480e+02 5.695971552232664e-07 -5.901420237632317e+02
4.037017258596559e+09 5.797093718457564e-07 -5.695370647330157e+02 -2.896930864815524e-07 -5.777898958274540e+02 -2.896931289542070e-07 -5.777898958274540e+02 5.797093523141492e-07 -5.695370647330155e+02
4.180344961851459e+09 5.900185233110499e-07 -5.496252841307933e+02 -2.949891162364727e-07 -5.581725974591087e+02 -2.949890138793464e-07 -5.581725974591086e+02 5.900185814514783e-07 -5.496252841307931e+02
4.328761281083063e+09 6.005264678401594e-07 -5.303824324782980e+02 -3.003890221065964e-07 -5.392348470407666e+02 -3.003889465940524e-07 -5.392348470407668e+02 6.005265391768916e-07 -5.303824324782980e+02
4.482446879289315e+09 6.112403526905557e-07 -5.117850732914734e+02 -3.058937388619342e-07 -5.209536033168630e+02 -3.058937621579890e-07 -5.209536033168630e+02 6.112403018581106e-07 -5.117850732914735e+02
4.641588833612784e+09 6.221638834192556e-07 -4.938105544088367e+02 -3.115077331383337e-07 -5.033066254224126e+02 -3.115076953924602e-07 -5.033066254224126e+02 6.221638968194918e-07 -4.938105544088368e+02
4.806380863064397e+09 6.333006750857422e-07 -4.764369802582795e+02 -3.172361554700390e-07 -4.862724459499161e+02 -3.172361385629659e-07 -4.862724459499161e+02 6.333007289323562e-07 -4.764369802582794e+02
4.977023564332117e+09 6.446592015249271e-07 -4.596431850267055e+02 -3.230797696299928e-07 -4.698303449738101e+02 -3.230798114562698e-07 -4.698303449738102e+02 6.446591375456669e-07 -4.596431850267056e+02
5.153724655961640e+09 6.562421130308212e-07 -4.434087066976936e+02 -3.290454879190328e-07 -4.539603250026798e+02 -3.290455285286488e-07 -4.539603250026796e+02 6.562420852802667e-07 -4.434087066976936e+02
5.336699231206316e+09 6.680576827899942e-07 -4.277137619232440e+02 -3.351352875662313e-07 -4.386430868308774e+02 -3.351352579823233e-07 -4.386430868308776e+02 6.680577090516086e-07 -4.277137619232437e+02
5.526170019854096e+09 6.801109578486900e-07 -4.125392216963326e+02 -3.413547955688367e-07 -4.238600062624881e+02 -3.413547476087985e-07 -4.238600062624886e+02 6.801110254495425e-07 -4.125392216963326e+02
5.722367659350224e+09 6.924094690176781e-07 -3.978665877917118e+02 -3.477078990883919e-07 -4.095931116819873e+02 -3.477078982067398e-07 -4.095931116819872e+02 6.924094593975416e-07 -3.978665877917118e+02
5.925530975545686e+09 7.049603841650489e-07 -3.836779699428948e+02 -3.541993715407092e-07 -3.958250624472387e+02 -3.541993841316929e-07 -3.958250624472388e+02 7.049603201549715e-07 -3.836779699428949e+02
6.135907273413181e+09 7.177699753921139e-07 -3.699560637238030e+02 -3.608357101071496e-07 -3.825391280819083e+02 -3.608356584546545e-07 -3.825391280819083e+02 7.177699717421202e-07 -3.699560637238030e+02
6.353752638084494e+09 7.308463983149689e-07 -3.566841291039100e+02 -3.676222625949505e-07 -3.697191682457279e+02 -3.676223429593692e-07 -3.697191682457280e+02 7.308462886175252e-07 -3.566841291039099e+02
6.579332246575689e+09 7.441989560982929e-07 -3.438459696460183e+02 -3.745640742042785e-07 -3.573496134624916e+02 -3.745641476918311e-07 -3.573496134624916e+02 7.441989445447849e-07 -3.438459696460183e+02
6.812920690579623e+09 7.578342962246849e-07 -3.314259123159732e+02 -3.816699024948796e-07 -3.454154465871169e+02 -3.816698805411939e-07 -3.454154465871169e+02 7.578343307220164e-07 -3.314259123159732e+02
7.054802310718655e+09 7.717641091275997e-07 -3.194087878736847e+02 -3.889443380733948e-07 -3.339021849946366e+02 -3.889442803205607e-07 -3.339021849946367e+02 7.717641673457903e-07 -3.194087878736847e+02
7.305271542664467e+09 7.859975415810136e-07 -3.077799118147590e+02 -3.963956032888513e-07 -3.227958634755713e+02 -3.963955755773292e-07 -3.227958634755712e+02 7.859975799156055e-07 -3.077799118147587e+02
7.564633275546302e+09 8.005448420126389e-07 -2.965250658318067e+02 -4.040321488309227e-07 -3.120830178237901e+02 -4.040322595055476e-07 -3.120830178237900e+02 8.005448155263447e-07 -2.965250658318066e+02
7.833203223083897e+09 8.154184522402214e-07 -2.856304797641354e+02 -4.118615251344969e-07 -3.017506691047529e+02 -4.118615315775611e-07 -3.017506691047528e+02 8.154184227210878e-07 -2.856304797641353e+02
8.111308307896886e+09 8.306293554671784e-07 -2.750828140039381e+02 -4.198941409643764e-07 -2.917863085938881e+02 -4.198940909988183e-07 -2.917863085938881e+02 8.306293181497905e-07 -2.750828140039381e+02
8.399287059458481e+09 8.461912350988089e-07 -2.648691423263514e+02 -4.281392748671751e-07 -2.821778833769217e+02 -4.281392736357008e-07 -2.821778833769216e+02 8.461912051127114e-07 -2.648691423263513e+02
8.697490026177849e+09 8.621177984173723e-07 -2.549769351097077e+02 -4.366079674991349e-07 -2.729137826061424e+02 -4.366079995665220e-07 -2.729137826061424e+02 8.621178029472292e-07 -2.549769351097077e+02
9.006280202112801e+09 8.784242217504714e-07 -2.453940429110694e+02 -4.453119109606010e-07 -2.639828244090301e+02 -4.453119317566030e-07 -2.639828244090301e+02 8.784242304092784e-07 -2.453940429110693e+02
9.326033468832214e+09 8.951269241948698e-07 -2.361086803605027e+02 -4.542633514341722e-07 -2.553742434482895e+02 -4.542633094672040e-07 -2.553742434482893e+02 8.951269383782115e-07 -2.361086803605026e+02
9.657139052966064e+09 9.122427378150548e-07 -2.271094103356497e+02 -4.634766280578555e-07 -2.470776791353136e+02 -4.634766773621987e-07 -2.470776791353136e+02 9.122427324885418e-07 -2.271094103356496e+02
1.000000000000002e+10 9.297910683806032e-07 -2.183851283757571e+02 -4.729661008865804e-07 -2.390831645023474e+02 -4.729661009460914e-07 -2.390831645023474e+02 9.297910385192406e-07 -2.183851283757571e+02
1.035503366489133e+10 9.477921731880597e-07 -2.099250472915296e+02 -4.827480428216117e-07 -2.313811157423570e+02 -4.827480133505928e-07 -2.313811157423570e+02 9.477921668679852e-07 -2.099250472915296e+02
1.072267222010325e+10 9.662670313320605e-07 -2.017186819237432e+02 -4.928411212867337e-07 -2.239623224297671e+02 -4.928411642146960e-07 -2.239623224297670e+02 9.662669828925839e-07 -2.017186819237432e+02
1.110336318167640e+10 9.852408625756710e-07 -1.937558339995306e+02 -5.032634213686822e-07 -2.168179384400140e+02 -5.032634455721152e-07 -2.168179384400140e+02 9.852408597051240e-07 -1.937558339995306e+02
1.149756995397738e+10 1.004738649834806e-06 -1.860265770304149e+02 -5.140370047220819e-07 -2.099394735913207e+02 -5.140370036526306e-07 -2.099394735913208e+02 1.004738676960443e-06 -1.860265770304149e+02
1.190577239378786e+10 1.024789044250211e-06 -1.785212411904334e+02 -5.251846249910479e-07 -2.033187860383892e+02 -5.251846141303975e-07 -2.033187860383892e+02 1.024789025861066e-06 -1.785212411904334e+02
1.232846739442069e+10 1.045422754161687e-06 -1.712303981058794e+02 -5.367316495031149e-07 -1.969480754550016e+02 -5.367317051910618e-07 -1.969480754550017e+02 1.045422756948359e-06 -1.712303981058794e+02
1.276616949057410e+10 1.066673048628438e-06 -1.641448454800675e+02 -5.487064996358524e-07 -1.908198770510014e+02 -5.487064789760464e-07 -1.908198770510014e+02 1.066673029781728e-06 -1.641448454800675e+02
1.321941148466032e+10 1.088577217862978e-06 -1.572555914668879e+02 -5.611392148274440e-07 -1.849270564790563e+02 -5.611392086098484e-07 -1.849270564790563e+02 1.088577196557641e-06 -1.572555914668879e+02
1.368874509537084e+10 1.111174807430944e-06 -1.505538386954024e+02 -5.740644044644657e-07 -1.792628056982796e+02 -5.740644197652562e-07 -1.792628056982796e+02 1.111174828074990e-06 -1.505538386954023e+02
1.417474162926808e+10 1.134510810698564e-06 -1.440309678339909e+02 -5.875189590180839e-07 -1.738206398755600e+02 -5.875189527869241e-07 -1.738206398755600e+02 1.134510753256535e-06 -1.440309678339909e+02
1.467799267622073e+10 1.158632713900656e-06 -1.376785205661185e+02 -6.015451681121488e-07 -1.685943954218072e+02 -6.015451726928387e-07 -1.685943954218073e+02 1.158632762643305e-06 -1.376785205661184e+02
1.519911082952937e+10 1.183595371428203e-06 -1.314881818300652e+02 -6.161880640485494e-07 -1.635782292798199e+02 -6.161880339832357e-07 -1.635782292798199e+02 1.183595342850753e-06 -1.314881818300652e+02
1.573873043161907e+10 1.209457174246657e-06 -1.254517611512070e+02 -6.314993662532155e-07 -1.587666196037947e+02 -6.314993652918873e-07 -1.587666196037947e+02 1.209457186801778e-06 -1.254517611512071e+02
1.629750834620648e+10 1.236284060265529e-06 -1.195611728667949e+02 -6.475357128357768e-07 -1.541543679985911e+02 -6.475357011784930e-07 -1.541543679985910e+02 1.236284061022336e-06 -1.195611728667950e+02
1.687612475788152e+10 1.264148628808547e-06 -1.138084150084511e+02 -6.643606508036556e-07 -1.497366035207585e+02 -6.643606283201093e-07 -1.497366035207585e+02 1.264148661197572e-06 -1.138084150084511e+02
1.747528400007688e+10 1.293131780745777e-06 -1.081855465653873e+02 -6.820452049140383e-07 -1.455087886845060e+02 -6.820452281985061e-07 -1.455087886845059e+02 1.293131782327770e-06 -1.081855465653872e+02
1.809571541243325e+10 1.323324125843003e-06 -1.026846627998330e+02 -7.006686193721609e-07 -1.414667277660202e+02 -7.006686042177301e-07 -1.414667277660202e+02 1.323324095419136e-06 -1.026846627998330e+02
1.873817422860388e+10 1.354826136636201e-06 -9.729786822295810e+01 -7.203205970146290e-07 -1.376065777610729e+02 -7.203206061902767e-07 -1.376065777610729e+02 1.354826135743131e-06 -9.729786822295810e+01
1.940344249557919e+10 1.387751275476828e-06 -9.201724676176892e+01 -7.411015557015302e-07 -1.339248624267023e+02 -7.411015555483331e-07 -1.339248624267024e+02 1.387751285862873e-06 -9.201724676176892e+01
2.009233002565052e+10 1.422226593530778e-06 -8.683482855113084e+01 -7.631254205031535e-07 -1.304184899316430e+02 -7.631254141061615e-07 -1.304184899316430e+02 1.422226605423214e-06 -8.683482855113083e+01
2.080567538217176e+10 1.458395438573724e-06 -8.174255266525495e+01 -7.865210710681266e-07 -1.270847747571061e+02 -7.865210595582436e-07 -1.270847747571061e+02 1.458395464724480e-06 -8.174255266525496e+01
2.154434690031889e+10 1.496420302447663e-06 -7.673222495310920e+01 -8.114349355726671e-07 -1.239214646359015e+02 -8.114349417676871e-07 -1.239214646359015e+02 1.496420296170381e-06 -7.673222495310921e+01
2.230924374408988e+10 1.536485121378517e-06 -7.179546995368263e+01 -8.380342244389592e-07 -1.209267735022880e+02 -8.380342163381211e-07 -1.209267735022880e+02 1.536485120580646e-06 -7.179546995368260e+01
2.310129700083165e+10 1.578799822701936e-06 -6.692367562841298e+01 -8.665101455131715e-07 -1.180994216586197e+02 -8.665101284474507e-07 -1.180994216586198e+02 1.578799825394304e-06 -6.692367562841295e+01
2.392147081462644e+10 1.623604189535195e-06 -6.210792934414434e+01 -8.970824386691644e-07 -1.154386846629289e+02 -8.970824180446810e-07 -1.154386846629289e+02 1.623604179661999e-06 -6.210792934414434e+01
2.477076355991717e+10 1.671173705546077e-06 -5.733894315019700e+01 -9.300044842746747e-07 -1.129444528243965e+02 -9.300044567839284e-07 -1.129444528243965e+02 1.671173669544084e-06 -5.733894315019701e+01
2.565020905680051e+10 1.721825833172653e-06 -5.260696588965153e+01 -9.655699185863897e-07 -1.106173036888392e+02 -9.655699236405652e-07 -1.106173036888392e+02 1.721825859946837e-06 -5.260696588965151e+01
2.656087782946693e+10 1.775928603931522e-06 -4.790167902964962e+01 -1.004120258134266e-06 -1.084585905417673e+02 -1.004120261662649e-06 -1.084585905417674e+02 1.775928628720865e-06 -4.790167902964960e+01
2.750387840931952e+10 1.833910275407477e-06 -4.321207223567613e+01 -1.046054952774584e-06 -1.064705508046229e+02 -1.046054951354444e-06 -1.064705508046229e+02 1.833910294076779e-06 -4.321207223567613e+01
2.848035868435809e+10 1.896271994649974e-06 -3.852629357683312e+01 -1.091843631273837e-06 -1.046564393236944e+02 -1.091843631716402e-06 -1.046564393236945e+02 1.896272007497328e-06 -3.852629357683314e+01
