!
# HZ S MA  R 5.000000E+001
!
1.0000000000000002E+000 5.0036262336276977E-003 1.2294417197134162E-002 8.7597411203549980E-008 4.5349299155939761E+001 9.9499637388210405E-001 -6.1942378253560266E-005 8.7349353971341220E-008 -1.3481165057094253E+002 
             8.7597403794886945E-008 4.5349293372380039E+001 5.0036262335406935E-003 1.2294419174169386E-002 8.7349361265012981E-008 -1.3481166478429617E+002 9.9499637388236062E-001 -6.1942388063614470E-005 
             9.9499637388210427E-001 -6.1942378253560768E-005 8.7349353971337567E-008 -1.3481165057094131E+002 5.0036262336275866E-003 1.2294417197134392E-002 8.7597411203550205E-008 4.5349299155940990E+001 
             8.7349361265014185E-008 -1.3481166478429708E+002 9.9499637388236062E-001 -6.1942388063616883E-005 8.7597403794885079E-008 4.5349293372378455E+001 5.0036262335412486E-003 1.2294419174168621E-002 
1.0232929922807543E+000 5.0036386538436636E-003 1.2436922541479023E-002 8.8618034150850782E-008 4.5353347807010451E+001 9.9499636146462489E-001 -6.2661873951969227E-005 8.8364188890653083E-008 -1.3480945034822821E+002 
             8.8618029869971505E-008 4.5353307043437745E+001 5.0036386539502294E-003 1.2436921706416575E-002 8.8364192626627290E-008 -1.3480949379877296E+002 9.9499636146458803E-001 -6.2661869883523071E-005 
             9.9499636146462545E-001 -6.2661873951968454E-005 8.8364188890652818E-008 -1.3480945034822861E+002 5.0036386538436636E-003 1.2436922541478716E-002 8.8618034150850120E-008 4.5353347807011630E+001 
             8.8364192626627872E-008 -1.3480949379877484E+002 9.9499636146458803E-001 -6.2661869883521798E-005 8.8618029869972882E-008 4.5353307043435422E+001 5.0036386539502294E-003 1.2436921706416073E-002 
1.0471285480508996E+000 5.0036512178532229E-003 1.2581081480491689E-002 8.9650623204490147E-008 4.5357435615566821E+001 9.9499634890332134E-001 -6.3389753535939645E-005 8.9390853002020722E-008 -1.3480723409305540E+002 
             8.9650621020076085E-008 4.5357406263815754E+001 5.0036512178739901E-003 1.2581081792141000E-002 8.9390854901258457E-008 -1.3480725851023197E+002 9.9499634890337918E-001 -6.3389754101168092E-005 
             9.9499634890332078E-001 -6.3389753535940811E-005 8.9390853002017519E-008 -1.3480723409305369E+002 5.0036512178533339E-003 1.2581081480491214E-002 8.9650623204491166E-008 4.5357435615567418E+001 
             8.9390854901261501E-008 -1.3480725851023448E+002 9.9499634890337918E-001 -6.3389754101165504E-005 8.9650621020079540E-008 4.5357406263813211E+001 5.0036512178739901E-003 1.2581081792141780E-002 
1.0715193052376064E+000 5.0036639273156403E-003 1.2726914080250520E-002 9.0695324815684221E-008 4.5361520374689107E+001 9.9499633619670480E-001 -6.4126121722604654E-005 9.0429480048327454E-008 -1.3480503168318106E+002 
             9.0695317224368854E-008 4.5361405119548145E+001 5.0036639275492937E-003 1.2726911577372015E-002 9.0429485734019027E-008 -1.3480514918363878E+002 9.9499633619648464E-001 -6.4126108151266929E-005 
             9.9499633619670513E-001 -6.4126121722603462E-005 9.0429480048325879E-008 -1.3480503168318080E+002 5.0036639273154182E-003 1.2726914080250758E-002 9.0695324815681998E-008 4.5361520374688844E+001 
             9.0429485734021290E-008 -1.3480514918363744E+002 9.9499633619648464E-001 -6.4126108151267214E-005 9.0695317224369013E-008 4.5361405119549175E+001 5.0036639275492937E-003 1.2726911577371859E-002 
1.0964781961431851E+000 5.0036767843045582E-003 1.2874435299423712E-002 9.1752265791412458E-008 4.5365606470228506E+001 9.9499632334260868E-001 -6.4871050384325709E-005 9.1480227281274111E-008 -1.3480285824051927E+002 
             9.1752266920170297E-008 4.5365427036667839E+001 5.0036767843378502E-003 1.2874434568969967E-002 9.1480223373576626E-008 -1.3480303696302681E+002 9.9499632334251931E-001 -6.4871046978537078E-005 
             9.9499632334260868E-001 -6.4871050384327051E-005 9.1480227281275130E-008 -1.3480285824052027E+002 5.0036767843043353E-003 1.2874435299424447E-002 9.1752265791412272E-008 4.5365606470229146E+001 
             9.1480223373575700E-008 -1.3480303696302744E+002 9.9499632334251931E-001 -6.4871046978538975E-005 9.1752266920169741E-008 4.5365427036669097E+001 5.0036767843378502E-003 1.2874434568970335E-002 
1.1220184543019633E+000 5.0036897898663689E-003 1.3023672022089873E-002 9.2821612398265367E-008 4.5369929012556490E+001 9.9499631034000691E-001 -6.5624680816474927E-005 9.2543219688394725E-008 -1.3480046649565554E+002 
             9.2821610199174765E-008 4.5369907585474003E+001 5.0036897899232123E-003 1.3023672019275623E-002 9.2543221503632322E-008 -1.3480049042997649E+002 9.9499631034004143E-001 -6.5624679563854266E-005 
             9.9499631034000691E-001 -6.5624680816475442E-005 9.2543219688393679E-008 -1.3480046649565600E+002 5.0036897898665909E-003 1.3023672022089022E-002 9.2821612398266082E-008 4.5369929012556184E+001 
             9.2543221503634704E-008 -1.3480049042997598E+002 9.9499631034004143E-001 -6.5624679563852951E-005 9.2821610199171563E-008 4.5369907585473854E+001 5.0036897899232123E-003 1.3023672019275574E-002 
1.1481536214968826E+000 5.0037029461729218E-003 1.3174639301589108E-002 9.3903505902867277E-008 4.5374130022847766E+001 9.9499629718676363E-001 -6.6387089843165906E-005 9.3618601430822194E-008 -1.3479821658914756E+002 
             9.3903500078417044E-008 4.5374058032722878E+001 5.0037029462013374E-003 1.3174638984240450E-002 9.3618606738118962E-008 -1.3479829183478245E+002 9.9499629718673044E-001 -6.6387087953739384E-005 
             9.9499629718676363E-001 -6.6387089843164727E-005 9.3618601430821360E-008 -1.3479821658914659E+002 5.0037029461729218E-003 1.3174639301588355E-002 9.3903505902869898E-008 4.5374130022850018E+001 
             9.3618606738123992E-008 -1.3479829183478421E+002 9.9499629718673044E-001 -6.6387087953738476E-005 9.3903500078420009E-008 4.5374058032720839E+001 5.0037029462018925E-003 1.3174638984239720E-002 
1.1748975549395295E+000 5.0037162549027153E-003 1.3327357915153191E-002 9.4998080796044542E-008 4.5378453573956250E+001 9.9499628388112993E-001 -6.7158380825790265E-005 9.4706536766536309E-008 -1.3479587124237776E+002 
             9.4998080665210192E-008 4.5378391123574858E+001 5.0037162548915081E-003 1.3327358181489075E-002 9.4706535966087395E-008 -1.3479593447657271E+002 9.9499628388115302E-001 -6.7158381445914944E-005 
             9.9499628388112993E-001 -6.7158380825792379E-005 9.4706536766530565E-008 -1.3479587124237904E+002 5.0037162549027153E-003 1.3327357915153036E-002 9.4998080796043854E-008 4.5378453573956044E+001 
             9.4706535966088229E-008 -1.3479593447657322E+002 9.9499628388115269E-001 -6.7158381445916082E-005 9.4998080665210576E-008 4.5378391123576193E+001 5.0037162548922853E-003 1.3327358181487838E-002 
1.2022644346174127E+000 5.0037297175956619E-003 1.3481850883573572E-002 9.6105505081328032E-008 4.5382808004612343E+001 9.9499627042165006E-001 -6.7938675355578291E-005 9.5807153812027423E-008 -1.3479351807141921E+002 
             9.6105508518070076E-008 4.5382897125521424E+001 5.0037297175458250E-003 1.3481851480003691E-002 9.5807151907316107E-008 -1.3479342454849552E+002 9.9499627042168182E-001 -6.7938677056213407E-005 
             9.9499627042165006E-001 -6.7938675355580066E-005 9.5807153812030758E-008 -1.3479351807141947E+002 5.0037297175959949E-003 1.3481850883572696E-002 9.6105505081326457E-008 4.5382808004613835E+001 
             9.5807151907316610E-008 -1.3479342454849316E+002 9.9499627042168148E-001 -6.7938677056213027E-005 9.6105508518067693E-008 4.5382897125523186E+001 5.0037297175456030E-003 1.3481851480004713E-002 
