! no comment supplied
# Hz Z RI R 5.00000000000e+01
1.00000000000e+06 0.00000000000e+00 -1.26792284781e+03 0.00000000000e+00 -1.26792667070e+03 0.00000000000e+00 -1.26792666438e+03 0.00000000000e+00 -1.26792273940e+03
2.59750000000e+07 0.00000000000e+00 -4.87352910479e+01 0.00000000000e+00 -4.88346062569e+01 0.00000000000e+00 -4.88346062565e+01 0.00000000000e+00 -4.87326389181e+01
5.09500000000e+07 0.00000000000e+00 -2.47325888019e+01 0.00000000000e+00 -2.49274843399e+01 0.00000000000e+00 -2.49274843398e+01 0.00000000000e+00 -2.47273852547e+01
7.59250000000e+07 0.00000000000e+00 -1.64714480686e+01 0.00000000000e+00 -1.67620970714e+01 0.00000000000e+00 -1.67620970715e+01 0.00000000000e+00 -1.64636903913e+01
1.00900000000e+08 0.00000000000e+00 -1.22625919097e+01 0.00000000000e+00 -1.26492536631e+01 0.00000000000e+00 -1.26492536631e+01 0.00000000000e+00 -1.22522760573e+01
1.25875000000e+08 0.00000000000e+00 -9.69383640209e+00 0.00000000000e+00 -1.01768578727e+01 0.00000000000e+00 -1.01768578727e+01 0.00000000000e+00 -9.68095699403e+00
1.50850000000e+08 0.00000000000e+00 -7.95042787426e+00 0.00000000000e+00 -8.53024577500e+00 0.00000000000e+00 -8.53024577500e+00 0.00000000000e+00 -7.93497818918e+00
1.75825000000e+08 0.00000000000e+00 -6.68050979980e+00 0.00000000000e+00 -7.35765321699e+00 0.00000000000e+00 -7.35765321698e+00 0.00000000000e+00 -6.66248177021e+00
2.00800000000e+08 0.00000000000e+00 -5.70725174247e+00 0.00000000000e+00 -6.48234535926e+00 0.00000000000e+00 -6.48234535926e+00 0.00000000000e+00 -5.68663594806e+00
2.25775000000e+08 0.00000000000e+00 -4.93204209229e+00 0.00000000000e+00 -5.80581005167e+00 0.00000000000e+00 -5.80581005167e+00 0.00000000000e+00 -4.90882775223e+00
2.50750000000e+08 0.00000000000e+00 -4.29553329736e+00 0.00000000000e+00 -5.26880375805e+00 0.00000000000e+00 -5.26880375805e+00 0.00000000000e+00 -4.26970826182e+00
2.75725000000e+08 0.00000000000e+00 -3.75985786613e+00 0.00000000000e+00 -4.83356831529e+00 0.00000000000e+00 -4.83356831529e+00 0.00000000000e+00 -3.73140860695e+00
3.00700000000e+08 0.00000000000e+00 -3.29970656851e+00 0.00000000000e+00 -4.47490996786e+00 0.00000000000e+00 -4.47490996786e+00 0.00000000000e+00 -3.26861816922e+00
3.25675000000e+08 0.00000000000e+00 -2.89751150736e+00 0.00000000000e+00 -4.17538336364e+00 0.00000000000e+00 -4.17538336364e+00 0.00000000000e+00 -2.86376765258e+00
3.50650000000e+08 0.00000000000e+00 -2.54068744702e+00 0.00000000000e+00 -3.92253391478e+00 0.00000000000e+00 -3.92253391478e+00 0.00000000000e+00 -2.50427041155e+00
3.75625000000e+08 0.00000000000e+00 -2.21997340097e+00 0.00000000000e+00 -3.70724054546e+00 0.00000000000e+00 -3.70724054546e+00 0.00000000000e+00 -2.18086403868e+00
4.00600000000e+08 0.00000000000e+00 -1.92839427718e+00 0.00000000000e+00 -3.52267864852e+00 0.00000000000e+00 -3.52267864852e+00 0.00000000000e+00 -1.88657201001e+00
4.25575000000e+08 0.00000000000e+00 -1.66058781800e+00 0.00000000000e+00 -3.36364851575e+00 0.00000000000e+00 -3.36364851575e+00 0.00000000000e+00 -1.61603062529e+00
4.50550000000e+08 0.00000000000e+00 -1.41235503926e+00 0.00000000000e+00 -3.22612748014e+00 0.00000000000e+00 -3.22612748014e+00 0.00000000000e+00 -1.36503944789e+00
4.75525000000e+08 0.00000000000e+00 -1.18035194062e+00 0.00000000000e+00 -3.10696358216e+00 0.00000000000e+00 -3.10696358216e+00 0.00000000000e+00 -1.13025301636e+00
5.00500000000e+08 0.00000000000e+00 -9.61873072169e-01 0.00000000000e+00 -3.00366139419e+00 0.00000000000e+00 -3.00366139419e+00 0.00000000000e+00 -9.08964412847e-01
5.25475000000e+08 0.00000000000e+00 -7.54696316858e-01 0.00000000000e+00 -2.91422942170e+00 0.00000000000e+00 -2.91422942170e+00 0.00000000000e+00 -6.98950047953e-01
5.50450000000e+08 0.00000000000e+00 -5.56969352213e-01 0.00000000000e+00 -2.83706961805e+00 0.00000000000e+00 -2.83706961805e+00 0.00000000000e+00 -4.98356125818e-01
5.75425000000e+08 0.00000000000e+00 -3.67125017499e-01 0.00000000000e+00 -2.77089632822e+00 0.00000000000e+00 -2.77089632822e+00 0.00000000000e+00 -3.05614015653e-01
6.00400000000e+08 0.00000000000e+00 -1.83817037401e-01 0.00000000000e+00 -2.71467622430e+00 0.00000000000e+00 -2.71467622430e+00 0.00000000000e+00 -1.19375981100e-01
6.25375000000e+08 0.00000000000e+00 -5.87025308255e-03 0.00000000000e+00 -2.66758352201e+00 0.00000000000e+00 -2.66758352201e+00 0.00000000000e+00 6.15345814219e-02
6.50350000000e+08 0.00000000000e+00 1.67758730677e-01 0.00000000000e+00 -2.62896656149e+00 0.00000000000e+00 -2.62896656149e+00 0.00000000000e+00 2.38162486282e-01
6.75325000000e+08 0.00000000000e+00 3.38013412015e-01 0.00000000000e+00 -2.59832304271e+00 0.00000000000e+00 -2.59832304271e+00 0.00000000000e+00 4.11452613355e-01
7.00300000000e+08 0.00000000000e+00 5.05763927677e-01 0.00000000000e+00 -2.57528204078e+00 0.00000000000e+00 -2.57528204078e+00 0.00000000000e+00 5.82276428743e-01
7.25275000000e+08 0.00000000000e+00 6.71829898063e-01 0.00000000000e+00 -2.55959152083e+00 0.00000000000e+00 -2.55959152083e+00 0.00000000000e+00 7.51454810841e-01
7.50250000000e+08 0.00000000000e+00 8.37000885973e-01 0.00000000000e+00 -2.55111051403e+00 0.00000000000e+00 -2.55111051403e+00 0.00000000000e+00 9.19778485020e-01
7.75225000000e+08 0.00000000000e+00 1.00205556846e+00 0.00000000000e+00 -2.54980546322e+00 0.00000000000e+00 -2.54980546322e+00 0.00000000000e+00 1.08802716490e+00
8.00200000000e+08 0.00000000000e+00 1.16778061921e+00 0.00000000000e+00 -2.55575054134e+00 0.00000000000e+00 -2.55575054134e+00 0.00000000000e+00 1.25698839574e+00
8.25175000000e+08 0.00000000000e+00 1.33499028683e+00 0.00000000000e+00 -2.56913202258e+00 0.00000000000e+00 -2.56913202258e+00 0.00000000000e+00 1.42747708282e+00
8.50150000000e+08 0.00000000000e+00 1.50454773187e+00 0.00000000000e+00 -2.59025707547e+00 0.00000000000e+00 -2.59025707547e+00 0.00000000000e+00 1.60035676423e+00
8.75125000000e+08 0.00000000000e+00 1.67738936472e+00 0.00000000000e+00 -2.61956768373e+00 0.00000000000e+00 -2.61956768373e+00 0.00000000000e+00 1.77656386552e+00
9.00100000000e+08 0.00000000000e+00 1.85455373469e+00 0.00000000000e+00 -2.65766082690e+00 0.00000000000e+00 -2.65766082690e+00 0.00000000000e+00 1.95713648036e+00
9.25075000000e+08 0.00000000000e+00 2.03721700772e+00 0.00000000000e+00 -2.70531662732e+00 0.00000000000e+00 -2.70531662732e+00 0.00000000000e+00 2.14324970530e+00
9.50050000000e+08 0.00000000000e+00 2.22673781546e+00 0.00000000000e+00 -2.76353698330e+00 0.00000000000e+00 -2.76353698330e+00 0.00000000000e+00 2.33626029912e+00
9.75025000000e+08 0.00000000000e+00 2.42471539887e+00 0.00000000000e+00 -2.83359839717e+00 0.00000000000e+00 -2.83359839717e+00 0.00000000000e+00 2.53776457135e+00
1.00000000000e+09 0.00000000000e+00 2.63306672390e+00 0.00000000000e+00 -2.91712449905e+00 0.00000000000e+00 -2.91712449905e+00 0.00000000000e+00 2.74967515092e+00
