! no comment supplied
# Hz Z RI R 5.00000000000e+01
1.00000000000e+06 1.43892027766e+00 -1.27079321144e+03 1.43342581413e+00 -1.27080294613e+03 1.43342583532e+00 -1.27080294799e+03 1.43910974328e+00 -1.27079287567e+03
2.59750000000e+07 1.42841093770e+00 -4.90148754083e+01 1.40004197970e+00 -4.91520358643e+01 1.40004197971e+00 -4.91520358631e+01 1.42938237721e+00 -4.90101714060e+01
5.09500000000e+07 1.36390179221e+00 -2.51120791469e+01 1.32396726434e+00 -2.53652951667e+01 1.32396726434e+00 -2.53652951666e+01 1.36521269008e+00 -2.51033934202e+01
7.59250000000e+07 1.26604574952e+00 -1.69548835572e+01 1.21703899396e+00 -1.73218115374e+01 1.21703899396e+00 -1.73218115374e+01 1.26757941767e+00 -1.69422702362e+01
1.00900000000e+08 1.15193682967e+00 -1.28226656627e+01 1.09510139028e+00 -1.33023349793e+01 1.09510139028e+00 -1.33023349792e+01 1.15363642640e+00 -1.28061298265e+01
1.25875000000e+08 1.03534786031e+00 -1.03004916958e+01 9.71423217805e-01 -1.08925487739e+01 9.71423217805e-01 -1.08925487739e+01 1.03718631335e+00 -1.02800225406e+01
1.50850000000e+08 9.25192124558e-01 -8.57815502875e+00 8.54647522640e-01 -9.28262635436e+00 8.54647522639e-01 -9.28262635436e+00 9.27159031678e-01 -8.55373700928e+00
1.75825000000e+08 8.26013440843e-01 -7.31009481209e+00 7.49148717966e-01 -8.12728605369e+00 7.49148717966e-01 -8.12728605369e+00 8.28107475064e-01 -7.28171138795e+00
2.00800000000e+08 7.39318060421e-01 -6.32529681406e+00 6.56315367024e-01 -7.25574336096e+00 6.56315367024e-01 -7.25574336096e+00 7.41542512557e-01 -6.29293117561e+00
2.25775000000e+08 6.64855401737e-01 -5.52975587090e+00 5.75808626899e-01 -6.57419740830e+00 5.75808626899e-01 -6.57419740830e+00 6.67215720474e-01 -5.49339056946e+00
2.50750000000e+08 6.01529630498e-01 -4.86748226454e+00 5.06462127419e-01 -6.02685033909e+00 5.06462127419e-01 -6.02685033909e+00 6.04032172580e-01 -4.82709858985e+00
2.75725000000e+08 5.47947677432e-01 -4.30293196550e+00 4.46823145715e-01 -5.57834539707e+00 4.46823145715e-01 -5.57834539707e+00 5.50599139125e-01 -4.25850938553e+00
3.00700000000e+08 5.02708651651e-01 -3.81234406279e+00 3.95437673345e-01 -5.20510959075e+00 3.95437673345e-01 -5.20510959075e+00 5.05515857650e-01 -3.76385980509e+00
3.25675000000e+08 4.64536236217e-01 -3.37914880996e+00 3.50979855085e-01 -4.89076559739e+00 3.50979855085e-01 -4.89076559739e+00 4.67506102916e-01 -3.32657757545e+00
3.50650000000e+08 4.32325272995e-01 -2.99138081466e+00 3.12296425554e-01 -4.62354809440e+00 3.12296425554e-01 -4.62354809440e+00 4.35464849180e-01 -2.93469459094e+00
3.75625000000e+08 4.05145684111e-01 -2.64014377489e+00 2.78408956908e-01 -4.39477130256e+00 2.78408956908e-01 -4.39477130256e+00 4.08462220764e-01 -2.57931171669e+00
4.00600000000e+08 3.82227648459e-01 -2.31865727248e+00 2.48497628690e-01 -4.19787848856e+00 2.48497628690e-01 -4.19787848856e+00 3.85728675284e-01 -2.25364562420e+00
4.25575000000e+08 3.62940395328e-01 -2.02164134650e+00 2.21878743831e-01 -4.02782931185e+00 2.21878743831e-01 -4.02782931185e+00 3.66633794791e-01 -1.95241338944e+00
4.50550000000e+08 3.46770544656e-01 -1.74490540317e+00 1.97981820832e-01 -3.88069169643e+00 1.97981820832e-01 -3.88069169643e+00 3.50664620668e-01 -1.67142141605e+00
4.75525000000e+08 3.33302537992e-01 -1.48506532319e+00 1.76328727484e-01 -3.75336219654e+00 1.76328727484e-01 -3.75336219654e+00 3.37406079265e-01 -1.40728254881e+00
5.00500000000e+08 3.22202015377e-01 -1.23934359379e+00 1.56515641902e-01 -3.64336978918e+00 1.56515641902e-01 -3.64336978918e+00 3.26524354647e-01 -1.15721620755e+00
5.25475000000e+08 3.13202207544e-01 -1.00542470620e+00 1.38197841862e-01 -3.54873544729e+00 1.38197841862e-01 -3.54873544729e+00 3.17753278232e-01 -9.18903784237e-01
5.50450000000e+08 3.06093089540e-01 -7.81348210020e-01 1.21076994666e-01 -3.46787001310e+00 1.21076994666e-01 -3.46787001310e+00 3.10883481465e-01 -6.90381695863e-01
5.75425000000e+08 3.00712946096e-01 -5.65427926409e-01 1.04890512045e-01 -3.39949902552e+00 1.04890512045e-01 -3.39949902552e+00 3.05753961763e-01 -4.69960595897e-01
6.00400000000e+08 2.96942009238e-01 -3.56189606426e-01 8.94025262545e-02 -3.34260697148e+00 8.94025262545e-02 -3.34260697148e+00 3.02245722134e-01 -2.56163031406e-01
6.25375000000e+08 2.94697884423e-01 -1.52321722993e-01 7.43960724757e-02 -3.29639587603e+00 7.43960724757e-02 -3.29639587603e+00 3.00277200669e-01 -4.76742347058e-02
6.50350000000e+08 2.93932554599e-01 4.73643605346e-02 5.96660985184e-02 -3.26025475650e+00 5.96660985184e-02 -3.26025475650e+00 2.99801279277e-01 1.56697706912e-01
6.75325000000e+08 2.94630830684e-01 2.43967582584e-01 4.50129505736e-02 -3.23373755869e+00 4.50129505737e-02 -3.23373755869e+00 3.00803740166e-01 3.58055040235e-01
7.00300000000e+08 2.96810199393e-01 4.38525803035e-01 3.02359954851e-02 -3.21654796019e+00 3.02359954851e-02 -3.21654796019e+00 3.03303121070e-01 5.57438960019e-01
7.25275000000e+08 3.00522107748e-01 6.32041482720e-01 1.51270304643e-02 -3.20852998710e+00 1.51270304643e-02 -3.20852998710e+00 3.07352008644e-01 7.55855279239e-01
7.50250000000e+08 3.05854823996e-01 8.25505789087e-01 -5.36905147620e-04 -3.20966382497e+00 -5.36905147623e-04 -3.20966382497e+00 3.13039909920e-01 9.54298520998e-01
7.75225000000e+08 3.12938136623e-01 1.01992235714e+00 -1.70017722342e-02 -3.22006656805e+00 -1.70017722342e-02 -3.22006656805e+00 3.20497963704e-01 1.15377565979e+00
8.00200000000e+08 3.21950310832e-01 1.21633190608e+00 -3.45464016513e-02 -3.23999798391e+00 -3.45464016513e-02 -3.23999798391e+00 3.29905911474e-01 1.35533071064e+00
8.25175000000e+08 3.33127936011e-01 1.41583898685e+00 -5.34947469391e-02 -3.26987171012e+00 -5.34947469391e-02 -3.26987171012e+00 3.41501961612e-01 1.56007143867e+00
8.50150000000e+08 3.46779600285e-01 1.61964232214e+00 -7.42315529637e-02 -3.31027268214e+00 -7.42315529637e-02 -3.31027268214e+00 3.55596483229e-01 1.76919964712e+00
8.75125000000e+08 3.63304768193e-01 1.82907052109e+00 -9.72228937544e-02 -3.36198205834e+00 -9.72228937544e-02 -3.36198205834e+00 3.72590905876e-01 1.98404682099e+00
9.00100000000e+08 3.83219893621e-01 2.04562544625e+00 -1.23043673205e-01 -3.42601151363e+00 -1.23043673205e-01 -3.42601151363e+00 3.93003857191e-01 2.20611739671e+00
9.25075000000e+08 4.07194799485e-01 2.27103624484e+00 -1.52415169358e-01 -3.50364959052e+00 -1.52415169358e-01 -3.50364959052e+00 4.17507569647e-01 2.43714265979e+00
9.50050000000e+08 4.36103910584e-01 2.50732812747e+00 -1.86257247782e-01 -3.59652393071e+00 -1.86257247782e-01 -3.59652393071e+00 4.46979141571e-01 2.67914933873e+00
9.75025000000e+08 4.71099396444e-01 2.75691153255e+00 -2.25762331577e-01 -3.70668481185e+00 -2.25762331577e-01 -3.70668481185e+00 4.82573706496e-01 2.93454851155e+00
1.00000000000e+09 5.13717293835e-01 3.02269956453e+00 -2.72502220718e-01 -3.83671769822e+00 -2.72502220718e-01 -3.83671769822e+00 5.25830574611e-01 3.20625268051e+00
